
T1F18 000:277 SEGGER J-Link V4.96d Log File (0000ms, 0262ms total)
T1F18 000:277 DLL Compiled: Jan 29 2015 11:45:37 (0000ms, 0262ms total)
T1F18 000:277 Logging started @ 2016-11-13 18:54 (0000ms, 0262ms total)
T1F18 000:277 JLINK_SetWarnOutHandler(...) (0001ms, 0263ms total)
T1F18 000:278 JLINK_OpenEx(...)
Firmware: J-Link ARM-OB STM32 compiled Aug 22 2012 19:52:04
Hardware: V7.00
S/N: 20160226
Feature(s): RDI,FlashDL,FlashBP,JFlash,GDBFull  returns O.K. (0259ms, 0522ms total)
T1F18 000:537 JLINK_SetErrorOutHandler(...) (0000ms, 0522ms total)
T1F18 000:537 JLINK_ExecCommand("ProjectFile = "C:\Users\TF-PC\Desktop\EE&NE\EE-Project-ADC\USER\JLinkSettings.ini"", ...)  returns 0x00 (0001ms, 0523ms total)
T1F18 000:542 JLINK_ExecCommand("Device = STM32F103C8", ...)Device "STM32F103C8" selected.  returns 0x00 (0006ms, 0529ms total)
T1F18 000:548 JLINK_ExecCommand("DisableConnectionTimeout", ...)  returns 0x01 (0000ms, 0529ms total)
T1F18 000:548 JLINK_GetHardwareVersion()  returns 0x11170 (0000ms, 0529ms total)
T1F18 000:548 JLINK_GetDLLVersion()  returns 49604 (0000ms, 0529ms total)
T1F18 000:548 JLINK_GetFirmwareString(...) (0000ms, 0529ms total)
T1F18 000:559 JLINK_GetDLLVersion()  returns 49604 (0000ms, 0529ms total)
T1F18 000:559 JLINK_GetCompileDateTime() (0000ms, 0529ms total)
T1F18 000:561 JLINK_GetFirmwareString(...) (0000ms, 0529ms total)
T1F18 000:565 JLINK_GetHardwareVersion()  returns 0x11170 (0000ms, 0529ms total)
T1F18 000:575 JLINK_TIF_Select(JLINKARM_TIF_SWD)  returns 0x00 (0003ms, 0532ms total)
T1F18 000:578 JLINK_SetSpeed(10000) (0000ms, 0532ms total)
T1F18 000:578 JLINK_GetId() >0x108 TIF>Found SWD-DP with ID 0x1BA01477 >0x0D TIF> >0x28 TIF> >0x0D TIF> >0x28 TIF> >0x0D TIF> >0x21 TIF> >0x0D TIF> >0x28 TIF> >0x0D TIF> >0x28 TIF> >0x0D TIF> >0x28 TIF> >0x0D TIF> >0x21 TIF> >0x0D TIF> >0x21 TIF> >0x0D TIF> >0x28 TIF> >0x0D TIF> >0x21 TIF> >0x0D TIF> >0x21 TIF> >0x108 TIF>Found SWD-DP with ID 0x1BA01477 >0x0D TIF> >0x21 TIF> >0x0D TIF> >0x28 TIF> >0x0D TIF> >0x28 TIF> >0x0D TIF> >0x21 TIF> >0x0D TIF> >0x28 TIF> >0x0D TIF> >0x21 TIF> >0x0D TIF> >0x21 TIF>
 >0x0D TIF> >0x21 TIF> >0x0D TIF> >0x21 TIF> >0x0D TIF> >0x28 TIF> >0x0D TIF> >0x28 TIF> >0x0D TIF> >0x21 TIF> >0x0D TIF> >0x28 TIF> >0x0D TIF> >0x28 TIF> >0x0D TIF> >0x28 TIF> >0x0D TIF> >0x21 TIF> >0x0D TIF> >0x21 TIF> >0x0D TIF> >0x28 TIF> >0x0D TIF> >0x21 TIF> >0x0D TIF> >0x21 TIF>Found Cortex-M3 r1p1, Little endian. -- CPU_WriteMem(4 bytes @ 0xE0002000) -- CPU_ReadMem(4 bytes @ 0xE000EDF0) -- CPU_ReadMem(4 bytes @ 0xE0002000)FPUnit: 6 code (BP) slots and 2 literal slots
 -- CPU_ReadMem(4 bytes @ 0xE000EDFC) -- CPU_ReadMem(4 bytes @ 0xE0001000) -- CPU_WriteMem(4 bytes @ 0xE0001000) -- CPU_ReadMem(4 bytes @ 0xE000ED88) -- CPU_WriteMem(4 bytes @ 0xE000ED88) -- CPU_ReadMem(4 bytes @ 0xE000ED88) -- CPU_WriteMem(4 bytes @ 0xE000ED88) -- CPU_ReadMem(4 bytes @ 0xE00FF010)TPIU fitted. -- CPU_ReadMem(4 bytes @ 0xE00FF014) -- CPU_ReadMem(4 bytes @ 0xE00FF018) >0x0D TIF> >0x21 TIF>  returns 0x1BA01477 (0061ms, 0593ms total)
T1F18 000:639 JLINK_GetDLLVersion()  returns 49604 (0000ms, 0593ms total)
T1F18 000:639 JLINK_CORE_GetFound()  returns 0x30000FF (0001ms, 0594ms total)
T1F18 000:640 JLINK_GetDebugInfo(0x100) -- Value=0xE00FF003  returns 0x00 (0000ms, 0594ms total)
T1F18 000:643 JLINK_ReadMem (0xE00FF000, 0x0020 Bytes, ...) -- CPU is running -- CPU_ReadMem(32 bytes @ 0xE00FF000) - Data: 03 F0 F0 FF 03 20 F0 FF 03 30 F0 FF 03 10 F0 FF ...  returns 0x00 (0001ms, 0595ms total)
T1F18 000:644 JLINK_ReadMem (0xE000EFF0, 0x0010 Bytes, ...) -- CPU is running -- CPU_ReadMem(16 bytes @ 0xE000EFF0) - Data: 0D 00 00 00 E0 00 00 00 05 00 00 00 B1 00 00 00  returns 0x00 (0001ms, 0596ms total)
T1F18 000:646 JLINK_ReadMem (0xE000EFD0, 0x0020 Bytes, ...) -- CPU is running -- CPU_ReadMem(32 bytes @ 0xE000EFD0) - Data: 04 00 00 00 00 00 00 00 00 00 00 00 00 00 00 00 ...  returns 0x00 (0001ms, 0597ms total)
T1F18 000:647 JLINK_ReadMem (0xE0001FF0, 0x0010 Bytes, ...) -- CPU is running -- CPU_ReadMem(16 bytes @ 0xE0001FF0) - Data: 0D 00 00 00 E0 00 00 00 05 00 00 00 B1 00 00 00  returns 0x00 (0001ms, 0598ms total)
T1F18 000:648 JLINK_ReadMem (0xE0001FD0, 0x0020 Bytes, ...) -- CPU is running -- CPU_ReadMem(32 bytes @ 0xE0001FD0) - Data: 04 00 00 00 00 00 00 00 00 00 00 00 00 00 00 00 ...  returns 0x00 (0001ms, 0599ms total)
T1F18 000:649 JLINK_ReadMem (0xE0002FF0, 0x0010 Bytes, ...) -- CPU is running -- CPU_ReadMem(16 bytes @ 0xE0002FF0) - Data: 0D 00 00 00 E0 00 00 00 05 00 00 00 B1 00 00 00  returns 0x00 (0001ms, 0600ms total)
T1F18 000:650 JLINK_ReadMem (0xE0002FD0, 0x0020 Bytes, ...) -- CPU is running -- CPU_ReadMem(32 bytes @ 0xE0002FD0) - Data: 04 00 00 00 00 00 00 00 00 00 00 00 00 00 00 00 ...  returns 0x00 (0001ms, 0601ms total)
T1F18 000:651 JLINK_ReadMem (0xE0000FF0, 0x0010 Bytes, ...) -- CPU is running -- CPU_ReadMem(16 bytes @ 0xE0000FF0) - Data: 0D 00 00 00 E0 00 00 00 05 00 00 00 B1 00 00 00  returns 0x00 (0001ms, 0602ms total)
T1F18 000:652 JLINK_ReadMem (0xE0000FD0, 0x0020 Bytes, ...) -- CPU is running -- CPU_ReadMem(32 bytes @ 0xE0000FD0) - Data: 04 00 00 00 00 00 00 00 00 00 00 00 00 00 00 00 ...  returns 0x00 (0001ms, 0603ms total)
T1F18 000:653 JLINK_ReadMem (0xE0040FF0, 0x0010 Bytes, ...) -- CPU is running -- CPU_ReadMem(16 bytes @ 0xE0040FF0) - Data: 0D 00 00 00 90 00 00 00 05 00 00 00 B1 00 00 00  returns 0x00 (0001ms, 0604ms total)
T1F18 000:654 JLINK_ReadMem (0xE0040FD0, 0x0020 Bytes, ...) -- CPU is running -- CPU_ReadMem(32 bytes @ 0xE0040FD0) - Data: 04 00 00 00 00 00 00 00 00 00 00 00 00 00 00 00 ...  returns 0x00 (0001ms, 0605ms total)
T1F18 000:655 JLINK_ReadMemU32(0xE000ED00, 0x0001 Items, ...) -- CPU is running -- CPU_ReadMem(4 bytes @ 0xE000ED00) - Data: 31 C2 1F 41  returns 0x01 (0001ms, 0606ms total)
T1F18 000:656 JLINK_SetResetType(JLINKARM_RESET_TYPE_NORMAL)  returns JLINKARM_RESET_TYPE_NORMAL (0000ms, 0606ms total)
T1F18 000:656 JLINK_Reset() -- CPU is running -- CPU_WriteMem(4 bytes @ 0xE000EDF0) -- CPU is running -- CPU_WriteMem(4 bytes @ 0xE000EDFC) >0x35 TIF> -- CPU is running -- CPU_WriteMem(4 bytes @ 0xE000ED0C) -- CPU is running -- CPU_ReadMem(4 bytes @ 0xE000EDF0) -- CPU is running -- CPU_ReadMem(4 bytes @ 0xE000EDF0) -- CPU is running -- CPU_WriteMem(4 bytes @ 0xE000EDF0) -- CPU is running -- CPU_WriteMem(4 bytes @ 0xE000EDFC) -- CPU is running -- CPU_ReadMem(4 bytes @ 0xE000EDF0)
 -- CPU_WriteMem(4 bytes @ 0xE0002000) -- CPU_ReadMem(4 bytes @ 0xE000EDFC) -- CPU_ReadMem(4 bytes @ 0xE0001000) (0023ms, 0629ms total)
T1F18 000:679 JLINK_Halt()  returns 0x00 (0000ms, 0629ms total)
T1F18 000:679 JLINK_IsHalted()  returns TRUE (0000ms, 0629ms total)
T1F18 000:679 JLINK_ReadMemU32(0xE000EDF0, 0x0001 Items, ...) -- CPU_ReadMem(4 bytes @ 0xE000EDF0) - Data: 03 00 03 00  returns 0x01 (0001ms, 0630ms total)
T1F18 000:680 JLINK_WriteU32(0xE000EDF0, 0xA05F0003) -- CPU_WriteMem(4 bytes @ 0xE000EDF0)  returns 0x00 (0001ms, 0631ms total)
T1F18 000:681 JLINK_WriteU32(0xE000EDFC, 0x01000000) -- CPU_WriteMem(4 bytes @ 0xE000EDFC)  returns 0x00 (0001ms, 0632ms total)
T1F18 000:692 JLINK_GetHWStatus(...)  returns 0x00 (0001ms, 0633ms total)
T1F18 000:701 JLINK_GetNumBPUnits(Type = 0xFFFFFF00)  returns 0x06 (0000ms, 0633ms total)
T1F18 000:701 JLINK_GetNumBPUnits(Type = 0xF0)  returns 0x2000 (0000ms, 0633ms total)
T1F18 000:701 JLINK_GetNumWPUnits()  returns 0x04 (0000ms, 0633ms total)
T1F18 000:709 JLINK_GetSpeed()  returns 0xFA0 (0000ms, 0633ms total)
T1F18 000:712 JLINK_ReadMemU32(0xE000E004, 0x0001 Items, ...) -- CPU_ReadMem(4 bytes @ 0xE000E004) - Data: 01 00 00 00  returns 0x01 (0001ms, 0634ms total)
T1F18 000:713 JLINK_ReadMemU32(0xE000E004, 0x0001 Items, ...) -- CPU_ReadMem(4 bytes @ 0xE000E004) - Data: 01 00 00 00  returns 0x01 (0001ms, 0635ms total)
T1F18 000:714 JLINK_WriteMem(0xE0001000, 0x001C Bytes, ...) - Data: 01 00 00 00 00 00 00 00 00 00 00 00 00 00 00 00 ... -- CPU_WriteMem(28 bytes @ 0xE0001000)  returns 0x1C (0001ms, 0636ms total)
T1F18 000:715 JLINK_ReadMem (0xE0001000, 0x001C Bytes, ...) -- CPU_ReadMem(28 bytes @ 0xE0001000) - Data: 01 00 00 40 00 00 00 00 00 00 00 00 00 00 00 00 ...  returns 0x00 (0001ms, 0637ms total)
T1F18 000:716 JLINK_Halt()  returns 0x00 (0000ms, 0637ms total)
T1F18 000:716 JLINK_IsHalted()  returns TRUE (0000ms, 0637ms total)
T1F18 000:718 JLINK_WriteMem(0x20000000, 0x0164 Bytes, ...) - Data: 00 BE 0A E0 0D 78 2D 06 68 40 08 24 40 00 00 D3 ... -- CPU_WriteMem(356 bytes @ 0x20000000)  returns 0x164 (0006ms, 0643ms total)
T1F18 000:724 JLINK_WriteReg(R0, 0x08000000)  returns 0x00 (0000ms, 0643ms total)
T1F18 000:724 JLINK_WriteReg(R1, 0x00B71B00)  returns 0x00 (0000ms, 0643ms total)
T1F18 000:724 JLINK_WriteReg(R2, 0x00000001)  returns 0x00 (0000ms, 0643ms total)
T1F18 000:724 JLINK_WriteReg(R3, 0x00000000)  returns 0x00 (0000ms, 0643ms total)
T1F18 000:724 JLINK_WriteReg(R4, 0x00000000)  returns 0x00 (0000ms, 0643ms total)
T1F18 000:724 JLINK_WriteReg(R5, 0x00000000)  returns 0x00 (0000ms, 0643ms total)
T1F18 000:724 JLINK_WriteReg(R6, 0x00000000)  returns 0x00 (0000ms, 0643ms total)
T1F18 000:724 JLINK_WriteReg(R7, 0x00000000)  returns 0x00 (0000ms, 0643ms total)
T1F18 000:724 JLINK_WriteReg(R8, 0x00000000)  returns 0x00 (0000ms, 0643ms total)
T1F18 000:724 JLINK_WriteReg(R9, 0x20000160)  returns 0x00 (0000ms, 0643ms total)
T1F18 000:724 JLINK_WriteReg(R10, 0x00000000)  returns 0x00 (0000ms, 0643ms total)
T1F18 000:724 JLINK_WriteReg(R11, 0x00000000)  returns 0x00 (0000ms, 0643ms total)
T1F18 000:724 JLINK_WriteReg(R12, 0x00000000)  returns 0x00 (0000ms, 0643ms total)
T1F18 000:724 JLINK_WriteReg(R13 (SP), 0x20001000)  returns 0x00 (0000ms, 0643ms total)
T1F18 000:724 JLINK_WriteReg(R14, 0x20000001)  returns 0x00 (0000ms, 0643ms total)
T1F18 000:724 JLINK_WriteReg(R15 (PC), 0x20000038)  returns 0x00 (0000ms, 0643ms total)
T1F18 000:724 JLINK_WriteReg(XPSR, 0x01000000)  returns 0x00 (0000ms, 0643ms total)
T1F18 000:724 JLINK_WriteReg(MSP, 0x20001000)  returns 0x00 (0000ms, 0643ms total)
T1F18 000:724 JLINK_WriteReg(PSP, 0x20001000)  returns 0x00 (0000ms, 0643ms total)
T1F18 000:724 JLINK_WriteReg(CFBP, 0x00000000)  returns 0x00 (0000ms, 0643ms total)
T1F18 000:724 JLINK_SetBPEx(Addr = 0x20000000, Type = 0xFFFFFFF2) -- CPU_ReadMem(2 bytes @ 0x20000000)  returns 0x00000001 (0001ms, 0644ms total)
T1F18 000:725 JLINK_Go() -- CPU_WriteMem(2 bytes @ 0x20000000) -- CPU_WriteMem(4 bytes @ 0xE0002008) -- CPU_WriteMem(4 bytes @ 0xE000200C) -- CPU_WriteMem(4 bytes @ 0xE0002010) -- CPU_WriteMem(4 bytes @ 0xE0002014) -- CPU_WriteMem(4 bytes @ 0xE0002018) -- CPU_WriteMem(4 bytes @ 0xE000201C) -- CPU_WriteMem(4 bytes @ 0xE0001004) (0008ms, 0652ms total)
T1F18 000:733 JLINK_IsHalted() -- CPU_ReadMem(2 bytes @ 0x20000000)  returns TRUE (0004ms, 0656ms total)
T1F18 000:737 JLINK_ReadReg(R15 (PC))  returns 0x20000000 (0000ms, 0652ms total)
T1F18 000:737 JLINK_ClrBPEx(BPHandle = 0x00000001)  returns 0x00 (0000ms, 0652ms total)
T1F18 000:737 JLINK_ReadReg(R0)  returns 0x00000000 (0000ms, 0652ms total)
T1F18 000:737 JLINK_WriteReg(R0, 0x08000000)  returns 0x00 (0000ms, 0652ms total)
T1F18 000:737 JLINK_WriteReg(R1, 0x00B71B00)  returns 0x00 (0000ms, 0652ms total)
T1F18 000:737 JLINK_WriteReg(R2, 0x00000001)  returns 0x00 (0000ms, 0652ms total)
T1F18 000:737 JLINK_WriteReg(R3, 0x00000000)  returns 0x00 (0000ms, 0652ms total)
T1F18 000:737 JLINK_WriteReg(R4, 0x00000000)  returns 0x00 (0000ms, 0652ms total)
T1F18 000:737 JLINK_WriteReg(R5, 0x00000000)  returns 0x00 (0000ms, 0652ms total)
T1F18 000:737 JLINK_WriteReg(R6, 0x00000000)  returns 0x00 (0000ms, 0652ms total)
T1F18 000:737 JLINK_WriteReg(R7, 0x00000000)  returns 0x00 (0000ms, 0652ms total)
T1F18 000:737 JLINK_WriteReg(R8, 0x00000000)  returns 0x00 (0000ms, 0652ms total)
T1F18 000:737 JLINK_WriteReg(R9, 0x20000160)  returns 0x00 (0000ms, 0652ms total)
T1F18 000:737 JLINK_WriteReg(R10, 0x00000000)  returns 0x00 (0000ms, 0652ms total)
T1F18 000:737 JLINK_WriteReg(R11, 0x00000000)  returns 0x00 (0000ms, 0652ms total)
T1F18 000:737 JLINK_WriteReg(R12, 0x00000000)  returns 0x00 (0000ms, 0652ms total)
T1F18 000:737 JLINK_WriteReg(R13 (SP), 0x20001000)  returns 0x00 (0000ms, 0652ms total)
T1F18 000:737 JLINK_WriteReg(R14, 0x20000001)  returns 0x00 (0000ms, 0652ms total)
T1F18 000:737 JLINK_WriteReg(R15 (PC), 0x2000007C)  returns 0x00 (0000ms, 0652ms total)
T1F18 000:737 JLINK_WriteReg(XPSR, 0x01000000)  returns 0x00 (0000ms, 0652ms total)
T1F18 000:737 JLINK_WriteReg(MSP, 0x20001000)  returns 0x00 (0000ms, 0652ms total)
T1F18 000:737 JLINK_WriteReg(PSP, 0x20001000)  returns 0x00 (0000ms, 0652ms total)
T1F18 000:737 JLINK_WriteReg(CFBP, 0x00000000)  returns 0x00 (0000ms, 0652ms total)
T1F18 000:737 JLINK_SetBPEx(Addr = 0x20000000, Type = 0xFFFFFFF2)  returns 0x00000002 (0000ms, 0652ms total)
T1F18 000:737 JLINK_Go() (0003ms, 0655ms total)
T1F18 000:740 JLINK_IsHalted()  returns FALSE (0000ms, 0655ms total)
T1F18 000:808 JLINK_IsHalted() -- CPU_ReadMem(2 bytes @ 0x20000000)  returns TRUE (0004ms, 0659ms total)
T1F18 000:812 JLINK_ReadReg(R15 (PC))  returns 0x20000000 (0000ms, 0655ms total)
T1F18 000:812 JLINK_ClrBPEx(BPHandle = 0x00000002)  returns 0x00 (0000ms, 0655ms total)
T1F18 000:812 JLINK_ReadReg(R0)  returns 0x00000000 (0001ms, 0656ms total)
T1F18 000:865 JLINK_WriteReg(R0, 0x00000001)  returns 0x00 (0000ms, 0656ms total)
T1F18 000:865 JLINK_WriteReg(R1, 0x00B71B00)  returns 0x00 (0000ms, 0656ms total)
T1F18 000:865 JLINK_WriteReg(R2, 0x00000001)  returns 0x00 (0000ms, 0656ms total)
T1F18 000:865 JLINK_WriteReg(R3, 0x00000000)  returns 0x00 (0000ms, 0656ms total)
T1F18 000:865 JLINK_WriteReg(R4, 0x00000000)  returns 0x00 (0000ms, 0656ms total)
T1F18 000:865 JLINK_WriteReg(R5, 0x00000000)  returns 0x00 (0000ms, 0656ms total)
T1F18 000:865 JLINK_WriteReg(R6, 0x00000000)  returns 0x00 (0000ms, 0656ms total)
T1F18 000:865 JLINK_WriteReg(R7, 0x00000000)  returns 0x00 (0000ms, 0656ms total)
T1F18 000:865 JLINK_WriteReg(R8, 0x00000000)  returns 0x00 (0000ms, 0656ms total)
T1F18 000:865 JLINK_WriteReg(R9, 0x20000160)  returns 0x00 (0000ms, 0656ms total)
T1F18 000:865 JLINK_WriteReg(R10, 0x00000000)  returns 0x00 (0000ms, 0656ms total)
T1F18 000:865 JLINK_WriteReg(R11, 0x00000000)  returns 0x00 (0000ms, 0656ms total)
T1F18 000:865 JLINK_WriteReg(R12, 0x00000000)  returns 0x00 (0000ms, 0656ms total)
T1F18 000:865 JLINK_WriteReg(R13 (SP), 0x20001000)  returns 0x00 (0000ms, 0656ms total)
T1F18 000:865 JLINK_WriteReg(R14, 0x20000001)  returns 0x00 (0000ms, 0656ms total)
T1F18 000:865 JLINK_WriteReg(R15 (PC), 0x2000006A)  returns 0x00 (0000ms, 0656ms total)
T1F18 000:865 JLINK_WriteReg(XPSR, 0x01000000)  returns 0x00 (0000ms, 0656ms total)
T1F18 000:865 JLINK_WriteReg(MSP, 0x20001000)  returns 0x00 (0000ms, 0656ms total)
T1F18 000:865 JLINK_WriteReg(PSP, 0x20001000)  returns 0x00 (0000ms, 0656ms total)
T1F18 000:865 JLINK_WriteReg(CFBP, 0x00000000)  returns 0x00 (0000ms, 0656ms total)
T1F18 000:865 JLINK_SetBPEx(Addr = 0x20000000, Type = 0xFFFFFFF2)  returns 0x00000003 (0000ms, 0656ms total)
T1F18 000:865 JLINK_Go() (0003ms, 0659ms total)
T1F18 000:868 JLINK_IsHalted() -- CPU_ReadMem(2 bytes @ 0x20000000)  returns TRUE (0004ms, 0663ms total)
T1F18 000:872 JLINK_ReadReg(R15 (PC))  returns 0x20000000 (0000ms, 0659ms total)
T1F18 000:872 JLINK_ClrBPEx(BPHandle = 0x00000003)  returns 0x00 (0000ms, 0659ms total)
T1F18 000:872 JLINK_ReadReg(R0)  returns 0x00000000 (0000ms, 0659ms total)
T1F18 000:872 JLINK_WriteMem(0x20000000, 0x01B8 Bytes, ...) - Data: 00 BE 0A E0 0D 78 2D 06 68 40 08 24 40 00 00 D3 ... -- CPU_WriteMem(440 bytes @ 0x20000000)  returns 0x1B8 (0006ms, 0665ms total)
T1F18 000:878 JLINK_WriteReg(R0, 0x1FFFF800)  returns 0x00 (0000ms, 0665ms total)
T1F18 000:878 JLINK_WriteReg(R1, 0x00B71B00)  returns 0x00 (0000ms, 0665ms total)
T1F18 000:878 JLINK_WriteReg(R2, 0x00000001)  returns 0x00 (0000ms, 0665ms total)
T1F18 000:878 JLINK_WriteReg(R3, 0x00000000)  returns 0x00 (0000ms, 0665ms total)
T1F18 000:879 JLINK_WriteReg(R4, 0x00000000)  returns 0x00 (0000ms, 0666ms total)
T1F18 000:879 JLINK_WriteReg(R5, 0x00000000)  returns 0x00 (0000ms, 0666ms total)
T1F18 000:879 JLINK_WriteReg(R6, 0x00000000)  returns 0x00 (0000ms, 0666ms total)
T1F18 000:879 JLINK_WriteReg(R7, 0x00000000)  returns 0x00 (0000ms, 0666ms total)
T1F18 000:879 JLINK_WriteReg(R8, 0x00000000)  returns 0x00 (0000ms, 0666ms total)
T1F18 000:879 JLINK_WriteReg(R9, 0x200001B4)  returns 0x00 (0000ms, 0666ms total)
T1F18 000:879 JLINK_WriteReg(R10, 0x00000000)  returns 0x00 (0000ms, 0666ms total)
T1F18 000:879 JLINK_WriteReg(R11, 0x00000000)  returns 0x00 (0000ms, 0666ms total)
T1F18 000:879 JLINK_WriteReg(R12, 0x00000000)  returns 0x00 (0000ms, 0666ms total)
T1F18 000:879 JLINK_WriteReg(R13 (SP), 0x20001000)  returns 0x00 (0000ms, 0666ms total)
T1F18 000:879 JLINK_WriteReg(R14, 0x20000001)  returns 0x00 (0000ms, 0666ms total)
T1F18 000:879 JLINK_WriteReg(R15 (PC), 0x20000020)  returns 0x00 (0000ms, 0666ms total)
T1F18 000:879 JLINK_WriteReg(XPSR, 0x01000000)  returns 0x00 (0000ms, 0666ms total)
T1F18 000:879 JLINK_WriteReg(MSP, 0x20001000)  returns 0x00 (0000ms, 0666ms total)
T1F18 000:879 JLINK_WriteReg(PSP, 0x20001000)  returns 0x00 (0000ms, 0666ms total)
T1F18 000:879 JLINK_WriteReg(CFBP, 0x00000000)  returns 0x00 (0000ms, 0666ms total)
T1F18 000:879 JLINK_SetBPEx(Addr = 0x20000000, Type = 0xFFFFFFF2) -- CPU_ReadMem(2 bytes @ 0x20000000)  returns 0x00000004 (0000ms, 0666ms total)
T1F18 000:879 JLINK_Go() -- CPU_WriteMem(2 bytes @ 0x20000000) (0003ms, 0669ms total)
T1F18 000:883 JLINK_IsHalted() -- CPU_ReadMem(2 bytes @ 0x20000000)  returns TRUE (0004ms, 0674ms total)
T1F18 000:887 JLINK_ReadReg(R15 (PC))  returns 0x20000000 (0000ms, 0670ms total)
T1F18 000:887 JLINK_ClrBPEx(BPHandle = 0x00000004)  returns 0x00 (0000ms, 0670ms total)
T1F18 000:887 JLINK_ReadReg(R0)  returns 0x00000000 (0000ms, 0670ms total)
T1F18 000:887 JLINK_WriteReg(R0, 0x1FFFF800)  returns 0x00 (0000ms, 0670ms total)
T1F18 000:887 JLINK_WriteReg(R1, 0x00B71B00)  returns 0x00 (0000ms, 0670ms total)
T1F18 000:887 JLINK_WriteReg(R2, 0x00000001)  returns 0x00 (0000ms, 0670ms total)
T1F18 000:887 JLINK_WriteReg(R3, 0x00000000)  returns 0x00 (0000ms, 0670ms total)
T1F18 000:887 JLINK_WriteReg(R4, 0x00000000)  returns 0x00 (0000ms, 0670ms total)
T1F18 000:887 JLINK_WriteReg(R5, 0x00000000)  returns 0x00 (0001ms, 0671ms total)
T1F18 000:888 JLINK_WriteReg(R6, 0x00000000)  returns 0x00 (0000ms, 0671ms total)
T1F18 000:888 JLINK_WriteReg(R7, 0x00000000)  returns 0x00 (0000ms, 0671ms total)
T1F18 000:888 JLINK_WriteReg(R8, 0x00000000)  returns 0x00 (0000ms, 0671ms total)
T1F18 000:888 JLINK_WriteReg(R9, 0x200001B4)  returns 0x00 (0000ms, 0671ms total)
T1F18 000:888 JLINK_WriteReg(R10, 0x00000000)  returns 0x00 (0000ms, 0671ms total)
T1F18 000:888 JLINK_WriteReg(R11, 0x00000000)  returns 0x00 (0000ms, 0671ms total)
T1F18 000:888 JLINK_WriteReg(R12, 0x00000000)  returns 0x00 (0000ms, 0671ms total)
T1F18 000:888 JLINK_WriteReg(R13 (SP), 0x20001000)  returns 0x00 (0000ms, 0671ms total)
T1F18 000:888 JLINK_WriteReg(R14, 0x20000001)  returns 0x00 (0000ms, 0671ms total)
T1F18 000:888 JLINK_WriteReg(R15 (PC), 0x20000076)  returns 0x00 (0000ms, 0671ms total)
T1F18 000:888 JLINK_WriteReg(XPSR, 0x01000000)  returns 0x00 (0000ms, 0671ms total)
T1F18 000:888 JLINK_WriteReg(MSP, 0x20001000)  returns 0x00 (0000ms, 0671ms total)
T1F18 000:888 JLINK_WriteReg(PSP, 0x20001000)  returns 0x00 (0000ms, 0671ms total)
T1F18 000:888 JLINK_WriteReg(CFBP, 0x00000000)  returns 0x00 (0000ms, 0671ms total)
T1F18 000:888 JLINK_SetBPEx(Addr = 0x20000000, Type = 0xFFFFFFF2)  returns 0x00000005 (0000ms, 0671ms total)
T1F18 000:888 JLINK_Go() (0002ms, 0673ms total)
T1F18 000:890 JLINK_IsHalted()  returns FALSE (0001ms, 0674ms total)
T1F18 000:926 JLINK_IsHalted() -- CPU_ReadMem(2 bytes @ 0x20000000)  returns TRUE (0005ms, 0678ms total)
T1F18 000:931 JLINK_ReadReg(R15 (PC))  returns 0x20000000 (0000ms, 0673ms total)
T1F18 000:931 JLINK_ClrBPEx(BPHandle = 0x00000005)  returns 0x00 (0000ms, 0673ms total)
T1F18 000:931 JLINK_ReadReg(R0)  returns 0x00000000 (0000ms, 0673ms total)
T1F18 000:984 JLINK_WriteReg(R0, 0x00000001)  returns 0x00 (0001ms, 0674ms total)
T1F18 000:985 JLINK_WriteReg(R1, 0x00B71B00)  returns 0x00 (0000ms, 0674ms total)
T1F18 000:985 JLINK_WriteReg(R2, 0x00000001)  returns 0x00 (0000ms, 0674ms total)
T1F18 000:985 JLINK_WriteReg(R3, 0x00000000)  returns 0x00 (0000ms, 0674ms total)
T1F18 000:985 JLINK_WriteReg(R4, 0x00000000)  returns 0x00 (0000ms, 0674ms total)
T1F18 000:985 JLINK_WriteReg(R5, 0x00000000)  returns 0x00 (0000ms, 0674ms total)
T1F18 000:985 JLINK_WriteReg(R6, 0x00000000)  returns 0x00 (0000ms, 0674ms total)
T1F18 000:985 JLINK_WriteReg(R7, 0x00000000)  returns 0x00 (0000ms, 0674ms total)
T1F18 000:985 JLINK_WriteReg(R8, 0x00000000)  returns 0x00 (0000ms, 0674ms total)
T1F18 000:985 JLINK_WriteReg(R9, 0x200001B4)  returns 0x00 (0000ms, 0674ms total)
T1F18 000:985 JLINK_WriteReg(R10, 0x00000000)  returns 0x00 (0000ms, 0674ms total)
T1F18 000:985 JLINK_WriteReg(R11, 0x00000000)  returns 0x00 (0000ms, 0674ms total)
T1F18 000:985 JLINK_WriteReg(R12, 0x00000000)  returns 0x00 (0000ms, 0674ms total)
T1F18 000:985 JLINK_WriteReg(R13 (SP), 0x20001000)  returns 0x00 (0000ms, 0674ms total)
T1F18 000:985 JLINK_WriteReg(R14, 0x20000001)  returns 0x00 (0000ms, 0674ms total)
T1F18 000:985 JLINK_WriteReg(R15 (PC), 0x2000005A)  returns 0x00 (0000ms, 0674ms total)
T1F18 000:985 JLINK_WriteReg(XPSR, 0x01000000)  returns 0x00 (0000ms, 0674ms total)
T1F18 000:985 JLINK_WriteReg(MSP, 0x20001000)  returns 0x00 (0000ms, 0674ms total)
T1F18 000:985 JLINK_WriteReg(PSP, 0x20001000)  returns 0x00 (0001ms, 0675ms total)
T1F18 000:986 JLINK_WriteReg(CFBP, 0x00000000)  returns 0x00 (0000ms, 0675ms total)
T1F18 000:986 JLINK_SetBPEx(Addr = 0x20000000, Type = 0xFFFFFFF2)  returns 0x00000006 (0000ms, 0675ms total)
T1F18 000:986 JLINK_Go() (0003ms, 0678ms total)
T1F18 000:989 JLINK_IsHalted() -- CPU_ReadMem(2 bytes @ 0x20000000)  returns TRUE (0005ms, 0683ms total)
T1F18 000:994 JLINK_ReadReg(R15 (PC))  returns 0x20000000 (0000ms, 0678ms total)
T1F18 000:994 JLINK_ClrBPEx(BPHandle = 0x00000006)  returns 0x00 (0000ms, 0678ms total)
T1F18 000:994 JLINK_ReadReg(R0)  returns 0x00000000 (0000ms, 0678ms total)
T1F18 001:008 JLINK_WriteMem(0x20000000, 0x0164 Bytes, ...) - Data: 00 BE 0A E0 0D 78 2D 06 68 40 08 24 40 00 00 D3 ... -- CPU_WriteMem(356 bytes @ 0x20000000)  returns 0x164 (0007ms, 0685ms total)
T1F18 001:015 JLINK_WriteReg(R0, 0x08000000)  returns 0x00 (0000ms, 0685ms total)
T1F18 001:015 JLINK_WriteReg(R1, 0x00B71B00)  returns 0x00 (0000ms, 0685ms total)
T1F18 001:015 JLINK_WriteReg(R2, 0x00000002)  returns 0x00 (0000ms, 0685ms total)
T1F18 001:015 JLINK_WriteReg(R3, 0x00000000)  returns 0x00 (0000ms, 0685ms total)
T1F18 001:015 JLINK_WriteReg(R4, 0x00000000)  returns 0x00 (0000ms, 0685ms total)
T1F18 001:015 JLINK_WriteReg(R5, 0x00000000)  returns 0x00 (0000ms, 0685ms total)
T1F18 001:015 JLINK_WriteReg(R6, 0x00000000)  returns 0x00 (0000ms, 0685ms total)
T1F18 001:015 JLINK_WriteReg(R7, 0x00000000)  returns 0x00 (0000ms, 0685ms total)
T1F18 001:015 JLINK_WriteReg(R8, 0x00000000)  returns 0x00 (0000ms, 0685ms total)
T1F18 001:015 JLINK_WriteReg(R9, 0x20000160)  returns 0x00 (0000ms, 0685ms total)
T1F18 001:015 JLINK_WriteReg(R10, 0x00000000)  returns 0x00 (0000ms, 0685ms total)
T1F18 001:015 JLINK_WriteReg(R11, 0x00000000)  returns 0x00 (0000ms, 0685ms total)
T1F18 001:015 JLINK_WriteReg(R12, 0x00000000)  returns 0x00 (0000ms, 0685ms total)
T1F18 001:015 JLINK_WriteReg(R13 (SP), 0x20001000)  returns 0x00 (0000ms, 0685ms total)
T1F18 001:016 JLINK_WriteReg(R14, 0x20000001)  returns 0x00 (0000ms, 0685ms total)
T1F18 001:016 JLINK_WriteReg(R15 (PC), 0x20000038)  returns 0x00 (0000ms, 0685ms total)
T1F18 001:016 JLINK_WriteReg(XPSR, 0x01000000)  returns 0x00 (0000ms, 0685ms total)
T1F18 001:016 JLINK_WriteReg(MSP, 0x20001000)  returns 0x00 (0000ms, 0685ms total)
T1F18 001:016 JLINK_WriteReg(PSP, 0x20001000)  returns 0x00 (0000ms, 0685ms total)
T1F18 001:016 JLINK_WriteReg(CFBP, 0x00000000)  returns 0x00 (0000ms, 0685ms total)
T1F18 001:016 JLINK_SetBPEx(Addr = 0x20000000, Type = 0xFFFFFFF2) -- CPU_ReadMem(2 bytes @ 0x20000000)  returns 0x00000007 (0001ms, 0686ms total)
T1F18 001:017 JLINK_Go() -- CPU_WriteMem(2 bytes @ 0x20000000) (0004ms, 0690ms total)
T1F18 001:021 JLINK_IsHalted() -- CPU_ReadMem(2 bytes @ 0x20000000)  returns TRUE (0005ms, 0695ms total)
T1F18 001:026 JLINK_ReadReg(R15 (PC))  returns 0x20000000 (0000ms, 0690ms total)
T1F18 001:026 JLINK_ClrBPEx(BPHandle = 0x00000007)  returns 0x00 (0000ms, 0690ms total)
T1F18 001:026 JLINK_ReadReg(R0)  returns 0x00000000 (0000ms, 0690ms total)
T1F18 001:027 JLINK_WriteMem(0x20000164, 0x0400 Bytes, ...) - Data: F0 0D 00 20 79 33 00 08 29 04 00 08 2B 04 00 08 ... -- CPU_WriteMem(1024 bytes @ 0x20000164)  returns 0x400 (0012ms, 0702ms total)
T1F18 001:039 JLINK_WriteReg(R0, 0x08000000)  returns 0x00 (0001ms, 0703ms total)
T1F18 001:040 JLINK_WriteReg(R1, 0x00000400)  returns 0x00 (0000ms, 0703ms total)
T1F18 001:040 JLINK_WriteReg(R2, 0x20000164)  returns 0x00 (0000ms, 0703ms total)
T1F18 001:040 JLINK_WriteReg(R3, 0x00000000)  returns 0x00 (0000ms, 0703ms total)
T1F18 001:040 JLINK_WriteReg(R4, 0x00000000)  returns 0x00 (0000ms, 0703ms total)
T1F18 001:040 JLINK_WriteReg(R5, 0x00000000)  returns 0x00 (0000ms, 0703ms total)
T1F18 001:040 JLINK_WriteReg(R6, 0x00000000)  returns 0x00 (0000ms, 0703ms total)
T1F18 001:040 JLINK_WriteReg(R7, 0x00000000)  returns 0x00 (0000ms, 0703ms total)
T1F18 001:040 JLINK_WriteReg(R8, 0x00000000)  returns 0x00 (0000ms, 0703ms total)
T1F18 001:040 JLINK_WriteReg(R9, 0x20000160)  returns 0x00 (0000ms, 0703ms total)
T1F18 001:040 JLINK_WriteReg(R10, 0x00000000)  returns 0x00 (0000ms, 0703ms total)
T1F18 001:040 JLINK_WriteReg(R11, 0x00000000)  returns 0x00 (0000ms, 0703ms total)
T1F18 001:040 JLINK_WriteReg(R12, 0x00000000)  returns 0x00 (0000ms, 0703ms total)
T1F18 001:040 JLINK_WriteReg(R13 (SP), 0x20001000)  returns 0x00 (0000ms, 0703ms total)
T1F18 001:040 JLINK_WriteReg(R14, 0x20000001)  returns 0x00 (0000ms, 0703ms total)
T1F18 001:040 JLINK_WriteReg(R15 (PC), 0x200000F4)  returns 0x00 (0000ms, 0703ms total)
T1F18 001:040 JLINK_WriteReg(XPSR, 0x01000000)  returns 0x00 (0000ms, 0703ms total)
T1F18 001:040 JLINK_WriteReg(MSP, 0x20001000)  returns 0x00 (0000ms, 0703ms total)
T1F18 001:040 JLINK_WriteReg(PSP, 0x20001000)  returns 0x00 (0000ms, 0703ms total)
T1F18 001:040 JLINK_WriteReg(CFBP, 0x00000000)  returns 0x00 (0000ms, 0703ms total)
T1F18 001:040 JLINK_SetBPEx(Addr = 0x20000000, Type = 0xFFFFFFF2)  returns 0x00000008 (0001ms, 0704ms total)
T1F18 001:041 JLINK_Go() (0002ms, 0706ms total)
T1F18 001:043 JLINK_IsHalted()  returns FALSE (0001ms, 0707ms total)
T1F18 001:103 JLINK_IsHalted() -- CPU_ReadMem(2 bytes @ 0x20000000)  returns TRUE (0004ms, 0710ms total)
T1F18 001:107 JLINK_ReadReg(R15 (PC))  returns 0x20000000 (0000ms, 0706ms total)
T1F18 001:107 JLINK_ClrBPEx(BPHandle = 0x00000008)  returns 0x00 (0000ms, 0706ms total)
T1F18 001:107 JLINK_ReadReg(R0)  returns 0x00000000 (0000ms, 0706ms total)
T1F18 001:108 JLINK_WriteMem(0x20000164, 0x0400 Bytes, ...) - Data: 42 54 3A 20 25 64 00 00 25 64 0D 0A 00 00 00 00 ... -- CPU_WriteMem(1024 bytes @ 0x20000164)  returns 0x400 (0012ms, 0718ms total)
T1F18 001:120 JLINK_WriteReg(R0, 0x08000400)  returns 0x00 (0000ms, 0718ms total)
T1F18 001:120 JLINK_WriteReg(R1, 0x00000400)  returns 0x00 (0000ms, 0718ms total)
T1F18 001:120 JLINK_WriteReg(R2, 0x20000164)  returns 0x00 (0000ms, 0718ms total)
T1F18 001:120 JLINK_WriteReg(R3, 0x00000000)  returns 0x00 (0000ms, 0718ms total)
T1F18 001:120 JLINK_WriteReg(R4, 0x00000000)  returns 0x00 (0000ms, 0718ms total)
T1F18 001:120 JLINK_WriteReg(R5, 0x00000000)  returns 0x00 (0000ms, 0718ms total)
T1F18 001:120 JLINK_WriteReg(R6, 0x00000000)  returns 0x00 (0001ms, 0719ms total)
T1F18 001:121 JLINK_WriteReg(R7, 0x00000000)  returns 0x00 (0000ms, 0719ms total)
T1F18 001:121 JLINK_WriteReg(R8, 0x00000000)  returns 0x00 (0000ms, 0719ms total)
T1F18 001:121 JLINK_WriteReg(R9, 0x20000160)  returns 0x00 (0000ms, 0719ms total)
T1F18 001:121 JLINK_WriteReg(R10, 0x00000000)  returns 0x00 (0000ms, 0719ms total)
T1F18 001:121 JLINK_WriteReg(R11, 0x00000000)  returns 0x00 (0000ms, 0719ms total)
T1F18 001:121 JLINK_WriteReg(R12, 0x00000000)  returns 0x00 (0000ms, 0719ms total)
T1F18 001:121 JLINK_WriteReg(R13 (SP), 0x20001000)  returns 0x00 (0000ms, 0719ms total)
T1F18 001:121 JLINK_WriteReg(R14, 0x20000001)  returns 0x00 (0000ms, 0719ms total)
T1F18 001:121 JLINK_WriteReg(R15 (PC), 0x200000F4)  returns 0x00 (0000ms, 0719ms total)
T1F18 001:121 JLINK_WriteReg(XPSR, 0x01000000)  returns 0x00 (0000ms, 0719ms total)
T1F18 001:121 JLINK_WriteReg(MSP, 0x20001000)  returns 0x00 (0000ms, 0719ms total)
T1F18 001:121 JLINK_WriteReg(PSP, 0x20001000)  returns 0x00 (0000ms, 0719ms total)
T1F18 001:121 JLINK_WriteReg(CFBP, 0x00000000)  returns 0x00 (0000ms, 0719ms total)
T1F18 001:121 JLINK_SetBPEx(Addr = 0x20000000, Type = 0xFFFFFFF2)  returns 0x00000009 (0000ms, 0719ms total)
T1F18 001:121 JLINK_Go() (0002ms, 0721ms total)
T1F18 001:123 JLINK_IsHalted()  returns FALSE (0001ms, 0722ms total)
T1F18 001:135 JLINK_IsHalted()  returns FALSE (0001ms, 0722ms total)
T1F18 001:137 JLINK_IsHalted()  returns FALSE (0001ms, 0722ms total)
T1F18 001:139 JLINK_IsHalted()  returns FALSE (0001ms, 0722ms total)
T1F18 001:141 JLINK_IsHalted()  returns FALSE (0001ms, 0722ms total)
T1F18 001:143 JLINK_IsHalted()  returns FALSE (0001ms, 0722ms total)
T1F18 001:145 JLINK_IsHalted()  returns FALSE (0001ms, 0722ms total)
T1F18 001:149 JLINK_IsHalted()  returns FALSE (0001ms, 0722ms total)
T1F18 001:151 JLINK_IsHalted()  returns FALSE (0001ms, 0722ms total)
T1F18 001:154 JLINK_IsHalted() -- CPU_ReadMem(2 bytes @ 0x20000000)  returns TRUE (0004ms, 0725ms total)
T1F18 001:158 JLINK_ReadReg(R15 (PC))  returns 0x20000000 (0000ms, 0721ms total)
T1F18 001:158 JLINK_ClrBPEx(BPHandle = 0x00000009)  returns 0x00 (0000ms, 0721ms total)
T1F18 001:158 JLINK_ReadReg(R0)  returns 0x00000000 (0000ms, 0721ms total)
T1F18 001:159 JLINK_WriteMem(0x20000164, 0x0400 Bytes, ...) - Data: 4F FC 07 46 A4 49 06 F0 2B FE 04 46 06 F0 1C FC ... -- CPU_WriteMem(1024 bytes @ 0x20000164)  returns 0x400 (0012ms, 0733ms total)
T1F18 001:171 JLINK_WriteReg(R0, 0x08000800)  returns 0x00 (0000ms, 0733ms total)
T1F18 001:171 JLINK_WriteReg(R1, 0x00000400)  returns 0x00 (0000ms, 0733ms total)
T1F18 001:171 JLINK_WriteReg(R2, 0x20000164)  returns 0x00 (0000ms, 0733ms total)
T1F18 001:171 JLINK_WriteReg(R3, 0x00000000)  returns 0x00 (0000ms, 0733ms total)
T1F18 001:171 JLINK_WriteReg(R4, 0x00000000)  returns 0x00 (0000ms, 0733ms total)
T1F18 001:171 JLINK_WriteReg(R5, 0x00000000)  returns 0x00 (0000ms, 0733ms total)
T1F18 001:171 JLINK_WriteReg(R6, 0x00000000)  returns 0x00 (0000ms, 0733ms total)
T1F18 001:171 JLINK_WriteReg(R7, 0x00000000)  returns 0x00 (0000ms, 0733ms total)
T1F18 001:171 JLINK_WriteReg(R8, 0x00000000)  returns 0x00 (0000ms, 0733ms total)
T1F18 001:171 JLINK_WriteReg(R9, 0x20000160)  returns 0x00 (0000ms, 0733ms total)
T1F18 001:171 JLINK_WriteReg(R10, 0x00000000)  returns 0x00 (0000ms, 0733ms total)
T1F18 001:171 JLINK_WriteReg(R11, 0x00000000)  returns 0x00 (0000ms, 0733ms total)
T1F18 001:171 JLINK_WriteReg(R12, 0x00000000)  returns 0x00 (0000ms, 0733ms total)
T1F18 001:171 JLINK_WriteReg(R13 (SP), 0x20001000)  returns 0x00 (0000ms, 0733ms total)
T1F18 001:171 JLINK_WriteReg(R14, 0x20000001)  returns 0x00 (0000ms, 0733ms total)
T1F18 001:171 JLINK_WriteReg(R15 (PC), 0x200000F4)  returns 0x00 (0000ms, 0733ms total)
T1F18 001:171 JLINK_WriteReg(XPSR, 0x01000000)  returns 0x00 (0000ms, 0733ms total)
T1F18 001:171 JLINK_WriteReg(MSP, 0x20001000)  returns 0x00 (0000ms, 0733ms total)
T1F18 001:171 JLINK_WriteReg(PSP, 0x20001000)  returns 0x00 (0000ms, 0733ms total)
T1F18 001:171 JLINK_WriteReg(CFBP, 0x00000000)  returns 0x00 (0000ms, 0733ms total)
T1F18 001:171 JLINK_SetBPEx(Addr = 0x20000000, Type = 0xFFFFFFF2)  returns 0x0000000A (0000ms, 0733ms total)
T1F18 001:171 JLINK_Go() (0003ms, 0736ms total)
T1F18 001:174 JLINK_IsHalted()  returns FALSE (0001ms, 0737ms total)
T1F18 001:184 JLINK_IsHalted()  returns FALSE (0000ms, 0736ms total)
T1F18 001:186 JLINK_IsHalted()  returns FALSE (0001ms, 0737ms total)
T1F18 001:189 JLINK_IsHalted()  returns FALSE (0000ms, 0736ms total)
T1F18 001:191 JLINK_IsHalted()  returns FALSE (0000ms, 0736ms total)
T1F18 001:193 JLINK_IsHalted()  returns FALSE (0000ms, 0736ms total)
T1F18 001:199 JLINK_IsHalted()  returns FALSE (0000ms, 0736ms total)
T1F18 001:201 JLINK_IsHalted()  returns FALSE (0000ms, 0736ms total)
T1F18 001:205 JLINK_IsHalted() -- CPU_ReadMem(2 bytes @ 0x20000000)  returns TRUE (0004ms, 0740ms total)
T1F18 001:209 JLINK_ReadReg(R15 (PC))  returns 0x20000000 (0000ms, 0736ms total)
T1F18 001:209 JLINK_ClrBPEx(BPHandle = 0x0000000A)  returns 0x00 (0000ms, 0736ms total)
T1F18 001:209 JLINK_ReadReg(R0)  returns 0x00000000 (0000ms, 0736ms total)
T1F18 001:209 JLINK_WriteMem(0x20000164, 0x0400 Bytes, ...) - Data: 06 F0 7E FB DF D3 B8 49 B8 48 00 68 06 F0 78 FB ... -- CPU_WriteMem(1024 bytes @ 0x20000164)  returns 0x400 (0013ms, 0749ms total)
T1F18 001:222 JLINK_WriteReg(R0, 0x08000C00)  returns 0x00 (0000ms, 0749ms total)
T1F18 001:222 JLINK_WriteReg(R1, 0x00000400)  returns 0x00 (0000ms, 0749ms total)
T1F18 001:222 JLINK_WriteReg(R2, 0x20000164)  returns 0x00 (0000ms, 0749ms total)
T1F18 001:222 JLINK_WriteReg(R3, 0x00000000)  returns 0x00 (0000ms, 0749ms total)
T1F18 001:222 JLINK_WriteReg(R4, 0x00000000)  returns 0x00 (0000ms, 0749ms total)
T1F18 001:222 JLINK_WriteReg(R5, 0x00000000)  returns 0x00 (0000ms, 0749ms total)
T1F18 001:222 JLINK_WriteReg(R6, 0x00000000)  returns 0x00 (0000ms, 0749ms total)
T1F18 001:222 JLINK_WriteReg(R7, 0x00000000)  returns 0x00 (0000ms, 0749ms total)
T1F18 001:222 JLINK_WriteReg(R8, 0x00000000)  returns 0x00 (0000ms, 0749ms total)
T1F18 001:222 JLINK_WriteReg(R9, 0x20000160)  returns 0x00 (0000ms, 0749ms total)
T1F18 001:222 JLINK_WriteReg(R10, 0x00000000)  returns 0x00 (0000ms, 0749ms total)
T1F18 001:222 JLINK_WriteReg(R11, 0x00000000)  returns 0x00 (0000ms, 0749ms total)
T1F18 001:222 JLINK_WriteReg(R12, 0x00000000)  returns 0x00 (0000ms, 0749ms total)
T1F18 001:222 JLINK_WriteReg(R13 (SP), 0x20001000)  returns 0x00 (0000ms, 0749ms total)
T1F18 001:222 JLINK_WriteReg(R14, 0x20000001)  returns 0x00 (0000ms, 0749ms total)
T1F18 001:222 JLINK_WriteReg(R15 (PC), 0x200000F4)  returns 0x00 (0000ms, 0749ms total)
T1F18 001:222 JLINK_WriteReg(XPSR, 0x01000000)  returns 0x00 (0000ms, 0749ms total)
T1F18 001:222 JLINK_WriteReg(MSP, 0x20001000)  returns 0x00 (0000ms, 0749ms total)
T1F18 001:222 JLINK_WriteReg(PSP, 0x20001000)  returns 0x00 (0000ms, 0749ms total)
T1F18 001:222 JLINK_WriteReg(CFBP, 0x00000000)  returns 0x00 (0000ms, 0749ms total)
T1F18 001:222 JLINK_SetBPEx(Addr = 0x20000000, Type = 0xFFFFFFF2)  returns 0x0000000B (0000ms, 0749ms total)
T1F18 001:222 JLINK_Go() (0003ms, 0752ms total)
T1F18 001:225 JLINK_IsHalted()  returns FALSE (0001ms, 0753ms total)
T1F18 001:231 JLINK_IsHalted()  returns FALSE (0001ms, 0753ms total)
T1F18 001:234 JLINK_IsHalted()  returns FALSE (0000ms, 0752ms total)
T1F18 001:236 JLINK_IsHalted()  returns FALSE (0001ms, 0753ms total)
T1F18 001:245 JLINK_IsHalted()  returns FALSE (0000ms, 0752ms total)
T1F18 001:247 JLINK_IsHalted()  returns FALSE (0001ms, 0753ms total)
T1F18 001:250 JLINK_IsHalted()  returns FALSE (0000ms, 0752ms total)
T1F18 001:251 JLINK_IsHalted()  returns FALSE (0001ms, 0753ms total)
T1F18 001:254 JLINK_IsHalted()  returns FALSE (0000ms, 0752ms total)
T1F18 001:259 JLINK_IsHalted() -- CPU_ReadMem(2 bytes @ 0x20000000)  returns TRUE (0005ms, 0757ms total)
T1F18 001:264 JLINK_ReadReg(R15 (PC))  returns 0x20000000 (0000ms, 0752ms total)
T1F18 001:264 JLINK_ClrBPEx(BPHandle = 0x0000000B)  returns 0x00 (0000ms, 0752ms total)
T1F18 001:264 JLINK_ReadReg(R0)  returns 0x00000000 (0000ms, 0752ms total)
T1F18 001:264 JLINK_WriteMem(0x20000164, 0x0400 Bytes, ...) - Data: 84 51 C0 48 04 F0 24 FA 02 23 BE 4A 19 46 00 20 ... -- CPU_WriteMem(1024 bytes @ 0x20000164)  returns 0x400 (0012ms, 0764ms total)
T1F18 001:276 JLINK_WriteReg(R0, 0x08001000)  returns 0x00 (0000ms, 0764ms total)
T1F18 001:276 JLINK_WriteReg(R1, 0x00000400)  returns 0x00 (0000ms, 0764ms total)
T1F18 001:276 JLINK_WriteReg(R2, 0x20000164)  returns 0x00 (0001ms, 0765ms total)
T1F18 001:277 JLINK_WriteReg(R3, 0x00000000)  returns 0x00 (0000ms, 0765ms total)
T1F18 001:277 JLINK_WriteReg(R4, 0x00000000)  returns 0x00 (0000ms, 0765ms total)
T1F18 001:277 JLINK_WriteReg(R5, 0x00000000)  returns 0x00 (0000ms, 0765ms total)
T1F18 001:277 JLINK_WriteReg(R6, 0x00000000)  returns 0x00 (0000ms, 0765ms total)
T1F18 001:277 JLINK_WriteReg(R7, 0x00000000)  returns 0x00 (0000ms, 0765ms total)
T1F18 001:277 JLINK_WriteReg(R8, 0x00000000)  returns 0x00 (0000ms, 0765ms total)
T1F18 001:277 JLINK_WriteReg(R9, 0x20000160)  returns 0x00 (0000ms, 0765ms total)
T1F18 001:277 JLINK_WriteReg(R10, 0x00000000)  returns 0x00 (0000ms, 0765ms total)
T1F18 001:277 JLINK_WriteReg(R11, 0x00000000)  returns 0x00 (0000ms, 0765ms total)
T1F18 001:277 JLINK_WriteReg(R12, 0x00000000)  returns 0x00 (0000ms, 0765ms total)
T1F18 001:277 JLINK_WriteReg(R13 (SP), 0x20001000)  returns 0x00 (0000ms, 0765ms total)
T1F18 001:277 JLINK_WriteReg(R14, 0x20000001)  returns 0x00 (0000ms, 0765ms total)
T1F18 001:277 JLINK_WriteReg(R15 (PC), 0x200000F4)  returns 0x00 (0000ms, 0765ms total)
T1F18 001:277 JLINK_WriteReg(XPSR, 0x01000000)  returns 0x00 (0000ms, 0765ms total)
T1F18 001:277 JLINK_WriteReg(MSP, 0x20001000)  returns 0x00 (0000ms, 0765ms total)
T1F18 001:277 JLINK_WriteReg(PSP, 0x20001000)  returns 0x00 (0000ms, 0765ms total)
T1F18 001:277 JLINK_WriteReg(CFBP, 0x00000000)  returns 0x00 (0000ms, 0765ms total)
T1F18 001:277 JLINK_SetBPEx(Addr = 0x20000000, Type = 0xFFFFFFF2)  returns 0x0000000C (0000ms, 0765ms total)
T1F18 001:277 JLINK_Go() (0002ms, 0767ms total)
T1F18 001:279 JLINK_IsHalted()  returns FALSE (0001ms, 0768ms total)
T1F18 001:290 JLINK_IsHalted()  returns FALSE (0001ms, 0768ms total)
T1F18 001:292 JLINK_IsHalted()  returns FALSE (0001ms, 0768ms total)
T1F18 001:294 JLINK_IsHalted()  returns FALSE (0001ms, 0768ms total)
T1F18 001:297 JLINK_IsHalted()  returns FALSE (0000ms, 0767ms total)
T1F18 001:304 JLINK_IsHalted()  returns FALSE (0001ms, 0768ms total)
T1F18 001:307 JLINK_IsHalted()  returns FALSE (0001ms, 0768ms total)
T1F18 001:310 JLINK_IsHalted() -- CPU_ReadMem(2 bytes @ 0x20000000)  returns TRUE (0005ms, 0772ms total)
T1F18 001:315 JLINK_ReadReg(R15 (PC))  returns 0x20000000 (0000ms, 0767ms total)
T1F18 001:315 JLINK_ClrBPEx(BPHandle = 0x0000000C)  returns 0x00 (0000ms, 0767ms total)
T1F18 001:315 JLINK_ReadReg(R0)  returns 0x00000000 (0000ms, 0767ms total)
T1F18 001:316 JLINK_WriteMem(0x20000164, 0x0400 Bytes, ...) - Data: 02 68 DC 48 04 F0 24 F8 02 23 DA 4A 06 21 00 20 ... -- CPU_WriteMem(1024 bytes @ 0x20000164)  returns 0x400 (0013ms, 0780ms total)
T1F18 001:329 JLINK_WriteReg(R0, 0x08001400)  returns 0x00 (0000ms, 0780ms total)
T1F18 001:329 JLINK_WriteReg(R1, 0x00000400)  returns 0x00 (0000ms, 0780ms total)
T1F18 001:329 JLINK_WriteReg(R2, 0x20000164)  returns 0x00 (0000ms, 0780ms total)
T1F18 001:329 JLINK_WriteReg(R3, 0x00000000)  returns 0x00 (0000ms, 0780ms total)
T1F18 001:329 JLINK_WriteReg(R4, 0x00000000)  returns 0x00 (0000ms, 0780ms total)
T1F18 001:329 JLINK_WriteReg(R5, 0x00000000)  returns 0x00 (0000ms, 0780ms total)
T1F18 001:329 JLINK_WriteReg(R6, 0x00000000)  returns 0x00 (0000ms, 0780ms total)
T1F18 001:329 JLINK_WriteReg(R7, 0x00000000)  returns 0x00 (0000ms, 0780ms total)
T1F18 001:329 JLINK_WriteReg(R8, 0x00000000)  returns 0x00 (0000ms, 0780ms total)
T1F18 001:329 JLINK_WriteReg(R9, 0x20000160)  returns 0x00 (0000ms, 0780ms total)
T1F18 001:329 JLINK_WriteReg(R10, 0x00000000)  returns 0x00 (0000ms, 0780ms total)
T1F18 001:329 JLINK_WriteReg(R11, 0x00000000)  returns 0x00 (0000ms, 0780ms total)
T1F18 001:329 JLINK_WriteReg(R12, 0x00000000)  returns 0x00 (0000ms, 0780ms total)
T1F18 001:329 JLINK_WriteReg(R13 (SP), 0x20001000)  returns 0x00 (0000ms, 0780ms total)
T1F18 001:329 JLINK_WriteReg(R14, 0x20000001)  returns 0x00 (0000ms, 0780ms total)
T1F18 001:329 JLINK_WriteReg(R15 (PC), 0x200000F4)  returns 0x00 (0000ms, 0780ms total)
T1F18 001:329 JLINK_WriteReg(XPSR, 0x01000000)  returns 0x00 (0000ms, 0780ms total)
T1F18 001:329 JLINK_WriteReg(MSP, 0x20001000)  returns 0x00 (0000ms, 0780ms total)
T1F18 001:329 JLINK_WriteReg(PSP, 0x20001000)  returns 0x00 (0000ms, 0780ms total)
T1F18 001:329 JLINK_WriteReg(CFBP, 0x00000000)  returns 0x00 (0001ms, 0781ms total)
T1F18 001:330 JLINK_SetBPEx(Addr = 0x20000000, Type = 0xFFFFFFF2)  returns 0x0000000D (0000ms, 0781ms total)
T1F18 001:330 JLINK_Go() (0002ms, 0783ms total)
T1F18 001:332 JLINK_IsHalted()  returns FALSE (0001ms, 0784ms total)
T1F18 001:370 JLINK_IsHalted() -- CPU_ReadMem(2 bytes @ 0x20000000)  returns TRUE (0005ms, 0788ms total)
T1F18 001:375 JLINK_ReadReg(R15 (PC))  returns 0x20000000 (0000ms, 0783ms total)
T1F18 001:375 JLINK_ClrBPEx(BPHandle = 0x0000000D)  returns 0x00 (0000ms, 0783ms total)
T1F18 001:375 JLINK_ReadReg(R0)  returns 0x00000000 (0000ms, 0783ms total)
T1F18 001:375 JLINK_WriteMem(0x20000164, 0x0400 Bytes, ...) - Data: 08 FC 01 F0 0A FA 01 F0 EC FA E8 49 E2 48 00 68 ... -- CPU_WriteMem(1024 bytes @ 0x20000164)  returns 0x400 (0013ms, 0796ms total)
T1F18 001:388 JLINK_WriteReg(R0, 0x08001800)  returns 0x00 (0000ms, 0796ms total)
T1F18 001:388 JLINK_WriteReg(R1, 0x00000400)  returns 0x00 (0000ms, 0796ms total)
T1F18 001:388 JLINK_WriteReg(R2, 0x20000164)  returns 0x00 (0000ms, 0796ms total)
T1F18 001:388 JLINK_WriteReg(R3, 0x00000000)  returns 0x00 (0000ms, 0796ms total)
T1F18 001:388 JLINK_WriteReg(R4, 0x00000000)  returns 0x00 (0000ms, 0796ms total)
T1F18 001:388 JLINK_WriteReg(R5, 0x00000000)  returns 0x00 (0000ms, 0796ms total)
T1F18 001:388 JLINK_WriteReg(R6, 0x00000000)  returns 0x00 (0000ms, 0796ms total)
T1F18 001:388 JLINK_WriteReg(R7, 0x00000000)  returns 0x00 (0000ms, 0796ms total)
T1F18 001:388 JLINK_WriteReg(R8, 0x00000000)  returns 0x00 (0000ms, 0796ms total)
T1F18 001:388 JLINK_WriteReg(R9, 0x20000160)  returns 0x00 (0000ms, 0796ms total)
T1F18 001:388 JLINK_WriteReg(R10, 0x00000000)  returns 0x00 (0000ms, 0796ms total)
T1F18 001:388 JLINK_WriteReg(R11, 0x00000000)  returns 0x00 (0000ms, 0796ms total)
T1F18 001:388 JLINK_WriteReg(R12, 0x00000000)  returns 0x00 (0000ms, 0796ms total)
T1F18 001:388 JLINK_WriteReg(R13 (SP), 0x20001000)  returns 0x00 (0000ms, 0796ms total)
T1F18 001:388 JLINK_WriteReg(R14, 0x20000001)  returns 0x00 (0000ms, 0796ms total)
T1F18 001:388 JLINK_WriteReg(R15 (PC), 0x200000F4)  returns 0x00 (0000ms, 0796ms total)
T1F18 001:388 JLINK_WriteReg(XPSR, 0x01000000)  returns 0x00 (0000ms, 0796ms total)
T1F18 001:388 JLINK_WriteReg(MSP, 0x20001000)  returns 0x00 (0000ms, 0796ms total)
T1F18 001:388 JLINK_WriteReg(PSP, 0x20001000)  returns 0x00 (0000ms, 0796ms total)
T1F18 001:388 JLINK_WriteReg(CFBP, 0x00000000)  returns 0x00 (0000ms, 0796ms total)
T1F18 001:388 JLINK_SetBPEx(Addr = 0x20000000, Type = 0xFFFFFFF2)  returns 0x0000000E (0000ms, 0796ms total)
T1F18 001:388 JLINK_Go() (0003ms, 0799ms total)
T1F18 001:391 JLINK_IsHalted()  returns FALSE (0001ms, 0800ms total)
T1F18 001:404 JLINK_IsHalted()  returns FALSE (0001ms, 0800ms total)
T1F18 001:415 JLINK_IsHalted()  returns FALSE (0001ms, 0800ms total)
T1F18 001:418 JLINK_IsHalted()  returns FALSE (0001ms, 0800ms total)
T1F18 001:420 JLINK_IsHalted()  returns FALSE (0001ms, 0800ms total)
T1F18 001:426 JLINK_IsHalted() -- CPU_ReadMem(2 bytes @ 0x20000000)  returns TRUE (0004ms, 0803ms total)
T1F18 001:431 JLINK_ReadReg(R15 (PC))  returns 0x20000000 (0000ms, 0799ms total)
T1F18 001:431 JLINK_ClrBPEx(BPHandle = 0x0000000E)  returns 0x00 (0000ms, 0799ms total)
T1F18 001:431 JLINK_ReadReg(R0)  returns 0x00000000 (0000ms, 0799ms total)
T1F18 001:432 JLINK_WriteMem(0x20000164, 0x0400 Bytes, ...) - Data: 4F F4 16 50 00 F0 8F F9 32 E0 01 20 75 49 08 60 ... -- CPU_WriteMem(1024 bytes @ 0x20000164)  returns 0x400 (0013ms, 0812ms total)
T1F18 001:445 JLINK_WriteReg(R0, 0x08001C00)  returns 0x00 (0000ms, 0812ms total)
T1F18 001:445 JLINK_WriteReg(R1, 0x00000400)  returns 0x00 (0000ms, 0812ms total)
T1F18 001:445 JLINK_WriteReg(R2, 0x20000164)  returns 0x00 (0000ms, 0812ms total)
T1F18 001:445 JLINK_WriteReg(R3, 0x00000000)  returns 0x00 (0000ms, 0812ms total)
T1F18 001:445 JLINK_WriteReg(R4, 0x00000000)  returns 0x00 (0000ms, 0812ms total)
T1F18 001:446 JLINK_WriteReg(R5, 0x00000000)  returns 0x00 (0000ms, 0813ms total)
T1F18 001:446 JLINK_WriteReg(R6, 0x00000000)  returns 0x00 (0000ms, 0813ms total)
T1F18 001:446 JLINK_WriteReg(R7, 0x00000000)  returns 0x00 (0000ms, 0813ms total)
T1F18 001:446 JLINK_WriteReg(R8, 0x00000000)  returns 0x00 (0000ms, 0813ms total)
T1F18 001:446 JLINK_WriteReg(R9, 0x20000160)  returns 0x00 (0000ms, 0813ms total)
T1F18 001:446 JLINK_WriteReg(R10, 0x00000000)  returns 0x00 (0000ms, 0813ms total)
T1F18 001:446 JLINK_WriteReg(R11, 0x00000000)  returns 0x00 (0000ms, 0813ms total)
T1F18 001:446 JLINK_WriteReg(R12, 0x00000000)  returns 0x00 (0000ms, 0813ms total)
T1F18 001:446 JLINK_WriteReg(R13 (SP), 0x20001000)  returns 0x00 (0000ms, 0813ms total)
T1F18 001:446 JLINK_WriteReg(R14, 0x20000001)  returns 0x00 (0000ms, 0813ms total)
T1F18 001:446 JLINK_WriteReg(R15 (PC), 0x200000F4)  returns 0x00 (0000ms, 0813ms total)
T1F18 001:446 JLINK_WriteReg(XPSR, 0x01000000)  returns 0x00 (0000ms, 0813ms total)
T1F18 001:446 JLINK_WriteReg(MSP, 0x20001000)  returns 0x00 (0000ms, 0813ms total)
T1F18 001:446 JLINK_WriteReg(PSP, 0x20001000)  returns 0x00 (0000ms, 0813ms total)
T1F18 001:446 JLINK_WriteReg(CFBP, 0x00000000)  returns 0x00 (0000ms, 0813ms total)
T1F18 001:446 JLINK_SetBPEx(Addr = 0x20000000, Type = 0xFFFFFFF2)  returns 0x0000000F (0000ms, 0813ms total)
T1F18 001:446 JLINK_Go() (0003ms, 0816ms total)
T1F18 001:449 JLINK_IsHalted()  returns FALSE (0001ms, 0817ms total)
T1F18 001:504 JLINK_IsHalted() -- CPU_ReadMem(2 bytes @ 0x20000000)  returns TRUE (0004ms, 0820ms total)
T1F18 001:508 JLINK_ReadReg(R15 (PC))  returns 0x20000000 (0000ms, 0816ms total)
T1F18 001:508 JLINK_ClrBPEx(BPHandle = 0x0000000F)  returns 0x00 (0000ms, 0816ms total)
T1F18 001:508 JLINK_ReadReg(R0)  returns 0x00000000 (0000ms, 0816ms total)
T1F18 001:509 JLINK_WriteMem(0x20000164, 0x0400 Bytes, ...) - Data: 29 46 20 46 02 F0 AC F8 01 21 20 46 02 F0 93 F8 ... -- CPU_WriteMem(1024 bytes @ 0x20000164)  returns 0x400 (0012ms, 0828ms total)
T1F18 001:521 JLINK_WriteReg(R0, 0x08002000)  returns 0x00 (0000ms, 0828ms total)
T1F18 001:521 JLINK_WriteReg(R1, 0x00000400)  returns 0x00 (0000ms, 0828ms total)
T1F18 001:521 JLINK_WriteReg(R2, 0x20000164)  returns 0x00 (0001ms, 0829ms total)
T1F18 001:522 JLINK_WriteReg(R3, 0x00000000)  returns 0x00 (0000ms, 0829ms total)
T1F18 001:522 JLINK_WriteReg(R4, 0x00000000)  returns 0x00 (0000ms, 0829ms total)
T1F18 001:522 JLINK_WriteReg(R5, 0x00000000)  returns 0x00 (0000ms, 0829ms total)
T1F18 001:522 JLINK_WriteReg(R6, 0x00000000)  returns 0x00 (0000ms, 0829ms total)
T1F18 001:522 JLINK_WriteReg(R7, 0x00000000)  returns 0x00 (0000ms, 0829ms total)
T1F18 001:522 JLINK_WriteReg(R8, 0x00000000)  returns 0x00 (0000ms, 0829ms total)
T1F18 001:522 JLINK_WriteReg(R9, 0x20000160)  returns 0x00 (0000ms, 0829ms total)
T1F18 001:522 JLINK_WriteReg(R10, 0x00000000)  returns 0x00 (0000ms, 0829ms total)
T1F18 001:522 JLINK_WriteReg(R11, 0x00000000)  returns 0x00 (0000ms, 0829ms total)
T1F18 001:522 JLINK_WriteReg(R12, 0x00000000)  returns 0x00 (0000ms, 0829ms total)
T1F18 001:522 JLINK_WriteReg(R13 (SP), 0x20001000)  returns 0x00 (0000ms, 0829ms total)
T1F18 001:522 JLINK_WriteReg(R14, 0x20000001)  returns 0x00 (0000ms, 0829ms total)
T1F18 001:522 JLINK_WriteReg(R15 (PC), 0x200000F4)  returns 0x00 (0000ms, 0829ms total)
T1F18 001:522 JLINK_WriteReg(XPSR, 0x01000000)  returns 0x00 (0000ms, 0829ms total)
T1F18 001:522 JLINK_WriteReg(MSP, 0x20001000)  returns 0x00 (0000ms, 0829ms total)
T1F18 001:522 JLINK_WriteReg(PSP, 0x20001000)  returns 0x00 (0000ms, 0829ms total)
T1F18 001:522 JLINK_WriteReg(CFBP, 0x00000000)  returns 0x00 (0000ms, 0829ms total)
T1F18 001:522 JLINK_SetBPEx(Addr = 0x20000000, Type = 0xFFFFFFF2)  returns 0x00000010 (0000ms, 0829ms total)
T1F18 001:522 JLINK_Go() (0002ms, 0831ms total)
T1F18 001:524 JLINK_IsHalted()  returns FALSE (0001ms, 0832ms total)
T1F18 001:535 JLINK_IsHalted()  returns FALSE (0001ms, 0832ms total)
T1F18 001:537 JLINK_IsHalted()  returns FALSE (0001ms, 0832ms total)
T1F18 001:540 JLINK_IsHalted()  returns FALSE (0000ms, 0831ms total)
T1F18 001:542 JLINK_IsHalted()  returns FALSE (0001ms, 0832ms total)
T1F18 001:544 JLINK_IsHalted()  returns FALSE (0001ms, 0832ms total)
T1F18 001:546 JLINK_IsHalted()  returns FALSE (0001ms, 0832ms total)
T1F18 001:553 JLINK_IsHalted()  returns FALSE (0000ms, 0831ms total)
T1F18 001:555 JLINK_IsHalted() -- CPU_ReadMem(2 bytes @ 0x20000000)  returns TRUE (0004ms, 0835ms total)
T1F18 001:559 JLINK_ReadReg(R15 (PC))  returns 0x20000000 (0000ms, 0831ms total)
T1F18 001:559 JLINK_ClrBPEx(BPHandle = 0x00000010)  returns 0x00 (0000ms, 0831ms total)
T1F18 001:559 JLINK_ReadReg(R0)  returns 0x00000000 (0000ms, 0831ms total)
T1F18 001:559 JLINK_WriteMem(0x20000164, 0x0400 Bytes, ...) - Data: 29 49 48 5D FF F7 C1 FE 6D 1C 60 1C C4 B2 10 2C ... -- CPU_WriteMem(1024 bytes @ 0x20000164)  returns 0x400 (0013ms, 0844ms total)
T1F18 001:572 JLINK_WriteReg(R0, 0x08002400)  returns 0x00 (0001ms, 0845ms total)
T1F18 001:573 JLINK_WriteReg(R1, 0x00000400)  returns 0x00 (0000ms, 0845ms total)
T1F18 001:573 JLINK_WriteReg(R2, 0x20000164)  returns 0x00 (0000ms, 0845ms total)
T1F18 001:573 JLINK_WriteReg(R3, 0x00000000)  returns 0x00 (0000ms, 0845ms total)
T1F18 001:573 JLINK_WriteReg(R4, 0x00000000)  returns 0x00 (0000ms, 0845ms total)
